time	V(n002)	V(n002)/V(n012)	V(n012)
Step Information: Temp=10  (Run: 1/8)
0.000000000000000e+000	0.000000e+000	0.000000e+000	0.000000e+000
1.000000013351432e-010	-7.427530e+000	8.947542e+003	-8.301196e-004
1.125000015020361e-010	-7.871979e+000	8.509793e+003	-9.250495e-004
2.375000015020361e-010	-7.977153e+000	4.461746e+003	-1.787899e-003
2.531250015020361e-010	-7.984747e+000	4.214521e+003	-1.894580e-003
3.000000015020360e-010	-7.996174e+000	3.614540e+003	-2.212225e-003
3.021972671270360e-010	-7.996532e+000	3.590599e+003	-2.227075e-003
3.044250503301611e-010	-7.996789e+000	3.566641e+003	-2.242106e-003
3.045166030645361e-010	-7.996799e+000	3.565663e+003	-2.242724e-003
3.045471206426611e-010	-7.996802e+000	3.565338e+003	-2.242930e-003
3.046052360502706e-010	-7.996809e+000	3.564717e+003	-2.243322e-003
3.046142355214265e-010	-7.996809e+000	3.564621e+003	-2.243383e-003
3.069473484185882e-010	-7.997056e+000	3.539899e+003	-2.259120e-003
3.098271791884696e-010	-7.997338e+000	3.509854e+003	-2.278539e-003
3.131029866892095e-010	-7.997625e+000	3.476293e+003	-2.300619e-003
3.142549189971620e-010	-7.997717e+000	3.464644e+003	-2.308381e-003
3.165587836130671e-010	-7.997888e+000	3.441579e+003	-2.323901e-003
3.215984874603593e-010	-7.998234e+000	3.392184e+003	-2.357842e-003
3.241903351532525e-010	-7.998385e+000	3.367330e+003	-2.375290e-003
3.282220982310863e-010	-7.998597e+000	3.329389e+003	-2.402422e-003
3.316778951549438e-010	-7.998755e+000	3.297544e+003	-2.425670e-003
3.322538613089201e-010	-7.998780e+000	3.292296e+003	-2.429544e-003
3.334057936168726e-010	-7.998827e+000	3.281851e+003	-2.437292e-003
3.362136286175068e-010	-7.998937e+000	3.256666e+003	-2.456174e-003
3.379415270794356e-010	-7.998999e+000	3.241361e+003	-2.467790e-003
3.402453916953407e-010	-7.999074e+000	3.221177e+003	-2.483276e-003
3.448531209271507e-010	-7.999204e+000	3.181561e+003	-2.514239e-003
3.540685793907708e-010	-7.999404e+000	3.105205e+003	-2.576127e-003
3.725714920872581e-010	-7.999707e+000	2.962502e+003	-2.700321e-003
3.752353355493983e-010	-7.999732e+000	2.943041e+003	-2.718186e-003
3.772512170883152e-010	-7.999751e+000	2.928484e+003	-2.731704e-003
3.795550817042202e-010	-7.999769e+000	2.912025e+003	-2.747150e-003
3.841628109360302e-010	-7.999801e+000	2.879661e+003	-2.778036e-003
3.933782693996503e-010	-7.999856e+000	2.817059e+003	-2.839790e-003
3.956821340155554e-010	-7.999867e+000	2.801835e+003	-2.855224e-003
4.002898632473654e-010	-7.999887e+000	2.771882e+003	-2.886084e-003
4.014417955553179e-010	-7.999891e+000	2.764495e+003	-2.893799e-003
4.037456601712230e-010	-7.999899e+000	2.749838e+003	-2.909225e-003
4.043216263251992e-010	-7.999901e+000	2.746199e+003	-2.913082e-003
4.054735586331518e-010	-7.999905e+000	2.738949e+003	-2.920794e-003
4.077774232490568e-010	-7.999912e+000	2.724565e+003	-2.936216e-003
4.123851524808668e-010	-7.999924e+000	2.696252e+003	-2.967054e-003
4.216006109444869e-010	-7.999943e+000	2.641377e+003	-3.028701e-003
4.400315278717272e-010	-7.999966e+000	2.538153e+003	-3.151885e-003
4.768933617262076e-010	-7.999986e+000	2.354449e+003	-3.397817e-003
5.506170294351686e-010	-7.999999e+000	2.057161e+003	-3.888853e-003
5.529208940510737e-010	-7.999999e+000	2.049088e+003	-3.904175e-003
5.575286232828837e-010	-7.999999e+000	2.033147e+003	-3.934787e-003
5.586805555908363e-010	-7.999999e+000	2.029201e+003	-3.942438e-003
5.609844202067413e-010	-7.999998e+000	2.021355e+003	-3.957740e-003
5.667440817465039e-010	-7.999998e+000	2.002007e+003	-3.995989e-003
5.736556755942190e-010	-7.999998e+000	1.979281e+003	-4.041870e-003
5.788393709800054e-010	-7.999998e+000	1.962577e+003	-4.076271e-003
5.857509648277204e-010	-7.999998e+000	1.940747e+003	-4.122122e-003
5.949664232913405e-010	-7.999998e+000	1.912399e+003	-4.183226e-003
6.133973402185807e-010	-7.999998e+000	1.858163e+003	-4.305325e-003
6.502591740730612e-010	-7.999998e+000	1.758590e+003	-4.549098e-003
7.239828417820222e-010	-7.999998e+000	1.588895e+003	-5.034945e-003
8.759253320513066e-010	-7.999998e+000	1.326070e+003	-6.032862e-003
9.460283422332683e-010	-7.999998e+000	1.232634e+003	-6.490167e-003
1.000826420421305e-009	-7.999998e+000	1.168524e+003	-6.846241e-003
1.110422576797380e-009	-7.999998e+000	1.058938e+003	-7.554736e-003
1.340301422804661e-009	-7.999998e+000	8.856233e+002	-9.033184e-003
1.496424994578873e-009	-7.999998e+000	7.979084e+002	-1.002621e-002
1.710729643401295e-009	-7.999998e+000	7.031684e+002	-1.137707e-002
1.905925852389588e-009	-7.999998e+000	6.351756e+002	-1.259494e-002
1.991418118430654e-009	-7.999998e+000	6.095602e+002	-1.312421e-002
2.105407806485408e-009	-7.999998e+000	5.786361e+002	-1.382561e-002
2.333387182594917e-009	-7.999998e+000	5.256103e+002	-1.522040e-002
2.390382026622294e-009	-7.999998e+000	5.139131e+002	-1.556683e-002
2.504371714677048e-009	-7.999998e+000	4.921706e+002	-1.625452e-002
2.732351090786557e-009	-7.999998e+000	4.539666e+002	-1.762244e-002
2.789345934813934e-009	-7.999998e+000	4.453792e+002	-1.796222e-002
2.903335622868689e-009	-7.999997e+000	4.292595e+002	-1.863674e-002
3.131314998978197e-009	-7.999997e+000	4.004282e+002	-1.997861e-002
3.185219590249631e-009	-7.999997e+000	3.942070e+002	-2.029390e-002
3.338510771677770e-009	-7.999997e+000	3.776213e+002	-2.118524e-002
3.468218694424656e-009	-7.999997e+000	3.647267e+002	-2.193422e-002
3.602980172603240e-009	-7.999997e+000	3.523066e+002	-2.270749e-002
3.704051281237178e-009	-7.999997e+000	3.435858e+002	-2.328384e-002
3.811860463780045e-009	-7.999997e+000	3.348002e+002	-2.389484e-002
4.027478828865779e-009	-7.999997e+000	3.185832e+002	-2.511117e-002
4.043106731614154e-009	-7.999997e+000	3.174735e+002	-2.519894e-002
4.074362537110904e-009	-7.999997e+000	3.152856e+002	-2.537381e-002
4.136874148104403e-009	-7.999997e+000	3.110050e+002	-2.572305e-002
4.173502045170906e-009	-7.999997e+000	3.085560e+002	-2.592721e-002
4.206528199025873e-009	-7.999997e+000	3.063845e+002	-2.611097e-002
4.225574705500455e-009	-7.999997e+000	3.051476e+002	-2.621681e-002
4.232255108710911e-009	-7.999997e+000	3.047164e+002	-2.625391e-002
4.232256889399673e-009	-7.999997e+000	3.047162e+002	-2.625392e-002
4.232258617934371e-009	-7.999997e+000	3.047161e+002	-2.625393e-002
4.232259571608687e-009	-7.999997e+000	3.047161e+002	-2.625394e-002
4.232262134608411e-009	-7.999997e+000	3.047159e+002	-2.625395e-002
4.232262343224667e-009	-7.999997e+000	3.047159e+002	-2.625395e-002
4.248619809803151e-009	-7.999997e+000	3.036657e+002	-2.634475e-002
4.272057309803151e-009	-7.999997e+000	3.021752e+002	-2.647469e-002
4.303307309803151e-009	-7.999997e+000	3.002137e+002	-2.664768e-002
4.381432309803151e-009	-7.999997e+000	2.954279e+002	-2.707935e-002
4.475182309803151e-009	-7.999997e+000	2.899060e+002	-2.759515e-002
4.564049497303152e-009	-7.999997e+000	2.848789e+002	-2.808210e-002
4.674654260334158e-009	-7.999997e+000	2.788882e+002	-2.868531e-002
4.798876062091971e-009	-7.999997e+000	2.724876e+002	-2.935912e-002
4.966783776935722e-009	-7.999997e+000	2.643425e+002	-3.026376e-002
5.092821374591973e-009	-7.999997e+000	2.585803e+002	-3.093815e-002
5.202196374591973e-009	-7.999997e+000	2.538045e+002	-3.152031e-002
5.264696374591972e-009	-7.999997e+000	2.511667e+002	-3.185134e-002
5.389696374591973e-009	-7.999997e+000	2.460789e+002	-3.250989e-002
5.639696374591972e-009	-7.999997e+000	2.365940e+002	-3.381319e-002
6.139696374591973e-009	-7.999997e+000	2.198369e+002	-3.639060e-002
6.247762552020289e-009	-7.999997e+000	2.165627e+002	-3.694078e-002
6.463894906876920e-009	-7.999997e+000	2.103816e+002	-3.802612e-002
6.896159616590184e-009	-7.999997e+000	1.992037e+002	-4.015987e-002
7.760689036016710e-009	-7.999997e+000	1.805523e+002	-4.430846e-002
8.898538851986038e-009	-7.999996e+000	1.611984e+002	-4.962826e-002
8.945960528727028e-009	-7.999996e+000	1.605053e+002	-4.984257e-002
8.986973870773290e-009	-7.999996e+000	1.599124e+002	-5.002738e-002
9.069000554865812e-009	-7.999996e+000	1.587432e+002	-5.039583e-002
9.233053923050855e-009	-7.999996e+000	1.564696e+002	-5.112813e-002
9.561160659420942e-009	-7.999996e+000	1.521644e+002	-5.257471e-002
1.021737413216112e-008	-7.999996e+000	1.444075e+002	-5.539875e-002
1.152980107764147e-008	-7.999996e+000	1.313631e+002	-6.089989e-002
1.185790781401155e-008	-7.999996e+000	1.285445e+002	-6.223524e-002
1.251412128675173e-008	-7.999996e+000	1.234215e+002	-6.481852e-002
1.382654823223208e-008	-7.999996e+000	1.145055e+002	-6.986560e-002
1.415465496860216e-008	-7.999996e+000	1.125280e+002	-7.109337e-002
1.481086844134234e-008	-7.999996e+000	1.088488e+002	-7.349642e-002
1.576835374891843e-008	-7.999995e+000	1.040185e+002	-7.690932e-002
1.667449227475301e-008	-7.999995e+000	9.995232e+001	-8.003812e-002
1.712499820379240e-008	-7.999995e+000	9.808457e+001	-8.156222e-002
1.903634097556317e-008	-7.999995e+000	9.112258e+001	-8.779377e-002
2.002066118467343e-008	-7.999995e+000	8.805412e+001	-9.085315e-002
2.133308813015378e-008	-7.999994e+000	8.440543e+001	-9.478056e-002
2.395794202111448e-008	-7.999994e+000	7.828158e+001	-1.021951e-001
2.920764980303588e-008	-7.999993e+000	6.910638e+001	-1.157634e-001
3.818091706734093e-008	-7.999992e+000	5.854037e+001	-1.366577e-001
4.784197116884382e-008	-7.999990e+000	5.095274e+001	-1.570081e-001
5.969298636704111e-008	-7.999989e+000	4.442622e+001	-1.800736e-001
7.298043920292841e-008	-7.999987e+000	3.909733e+001	-2.046172e-001
9.172478791136463e-008	-7.999984e+000	3.362284e+001	-2.379330e-001
1.173936873225495e-007	-7.999979e+000	2.832018e+001	-2.824834e-001
1.192096976523073e-007	-7.999979e+000	2.801310e+001	-2.855799e-001
1.199361017842104e-007	-7.999979e+000	2.789308e+001	-2.868088e-001
1.214537877485944e-007	-7.999979e+000	2.764578e+001	-2.893744e-001
1.253632625513160e-007	-7.999979e+000	2.703050e+001	-2.959611e-001
1.303572909581500e-007	-7.999978e+000	2.628682e+001	-3.043341e-001
1.329947254946021e-007	-7.999977e+000	2.591196e+001	-3.087369e-001
1.345512989734279e-007	-7.999977e+000	2.569621e+001	-3.113291e-001
1.350484406684370e-007	-7.999977e+000	2.562813e+001	-3.121561e-001
1.371408428047307e-007	-7.999977e+000	2.534595e+001	-3.156314e-001
1.404164015382573e-007	-7.999976e+000	2.491775e+001	-3.210554e-001
1.431545907585360e-007	-7.999976e+000	2.457195e+001	-3.255734e-001
1.459240065114166e-007	-7.999975e+000	2.423283e+001	-3.301296e-001
1.481032189071260e-007	-7.999975e+000	2.397338e+001	-3.337024e-001
1.510088354347385e-007	-7.999975e+000	2.363671e+001	-3.384556e-001
1.531880478304479e-007	-7.999974e+000	2.339118e+001	-3.420081e-001
1.560936643580604e-007	-7.999974e+000	2.307286e+001	-3.467265e-001
1.619048974132854e-007	-7.999973e+000	2.246530e+001	-3.561035e-001
1.735273635237354e-007	-7.999971e+000	2.134882e+001	-3.747267e-001
1.764329800513479e-007	-7.999970e+000	2.108890e+001	-3.793450e-001
1.822442131065728e-007	-7.999969e+000	2.059229e+001	-3.884934e-001
1.938666792170228e-007	-7.999968e+000	1.967235e+001	-4.066605e-001
1.974986998765385e-007	-7.999967e+000	1.940368e+001	-4.122912e-001
1.989515081403447e-007	-7.999967e+000	1.929891e+001	-4.145294e-001
2.076683577231822e-007	-7.999966e+000	1.869818e+001	-4.278473e-001
2.192908238336322e-007	-7.999964e+000	1.796546e+001	-4.452970e-001
2.425357560545322e-007	-7.999960e+000	1.667904e+001	-4.796414e-001
2.464411369456951e-007	-7.999959e+000	1.648427e+001	-4.853088e-001
2.542518987280210e-007	-7.999959e+000	1.611308e+001	-4.964884e-001
2.549841576451141e-007	-7.999958e+000	1.607940e+001	-4.975285e-001
2.707106216356286e-007	-7.999956e+000	1.539844e+001	-5.195304e-001
2.806999847973492e-007	-7.999954e+000	1.500469e+001	-5.331635e-001
2.885107465796751e-007	-7.999953e+000	1.471680e+001	-5.435932e-001
3.041322701443269e-007	-7.999950e+000	1.419130e+001	-5.637220e-001
3.356941432733934e-007	-7.999945e+000	1.326962e+001	-6.028768e-001
3.376070992719706e-007	-7.999945e+000	1.322106e+001	-6.050911e-001
3.386248555350074e-007	-7.999945e+000	1.319553e+001	-6.062616e-001
3.410387793398526e-007	-7.999945e+000	1.313594e+001	-6.090118e-001
3.423140833389040e-007	-7.999944e+000	1.310505e+001	-6.104475e-001
3.455023433365326e-007	-7.999944e+000	1.302911e+001	-6.140052e-001
3.467776473355840e-007	-7.999944e+000	1.299950e+001	-6.154041e-001
3.493282553336869e-007	-7.999943e+000	1.294157e+001	-6.181588e-001
3.544294713298926e-007	-7.999942e+000	1.282925e+001	-6.235706e-001
3.557446285789144e-007	-7.999942e+000	1.280112e+001	-6.249406e-001
3.570677253425787e-007	-7.999942e+000	1.277348e+001	-6.262928e-001
3.610008597065965e-007	-7.999941e+000	1.269371e+001	-6.302287e-001
3.640183423010318e-007	-7.999941e+000	1.263516e+001	-6.331490e-001
3.666675253085980e-007	-7.999940e+000	1.258571e+001	-6.356366e-001
3.696017986760447e-007	-7.999940e+000	1.253311e+001	-6.383044e-001
3.707176896752147e-007	-7.999940e+000	1.251378e+001	-6.392907e-001
3.719929936742661e-007	-7.999939e+000	1.249220e+001	-6.403949e-001
3.754602264216872e-007	-7.999939e+000	1.243533e+001	-6.433233e-001
3.772192098973858e-007	-7.999939e+000	1.240790e+001	-6.447455e-001
3.790916802091645e-007	-7.999938e+000	1.237978e+001	-6.462101e-001
3.809647829577713e-007	-7.999938e+000	1.235264e+001	-6.476299e-001
3.828777389563484e-007	-7.999938e+000	1.232634e+001	-6.490116e-001
3.855080534543920e-007	-7.999938e+000	1.229158e+001	-6.508470e-001
3.862133859243264e-007	-7.999938e+000	1.228271e+001	-6.513168e-001
3.869415323366114e-007	-7.999937e+000	1.227375e+001	-6.517923e-001
3.875791843361371e-007	-7.999937e+000	1.226609e+001	-6.521994e-001
3.888544883351885e-007	-7.999937e+000	1.225130e+001	-6.529870e-001
3.916442158331136e-007	-7.999937e+000	1.222024e+001	-6.546467e-001
3.939332893107353e-007	-7.999936e+000	1.219707e+001	-6.558898e-001
3.965574916717018e-007	-7.999936e+000	1.217295e+001	-6.571896e-001
3.987264824228048e-007	-7.999935e+000	1.215504e+001	-6.581581e-001
3.994331770643691e-007	-7.999935e+000	1.214959e+001	-6.584529e-001
4.012703379415426e-007	-7.999935e+000	1.213642e+001	-6.591676e-001
4.028428811686978e-007	-7.999935e+000	1.212623e+001	-6.597214e-001
4.037776714496798e-007	-7.999935e+000	1.212069e+001	-6.600231e-001
4.050146923448091e-007	-7.999934e+000	1.211388e+001	-6.603938e-001
4.067342322862226e-007	-7.999934e+000	1.210552e+001	-6.608499e-001
4.079896096602889e-007	-7.999934e+000	1.210033e+001	-6.611338e-001
4.098975840026198e-007	-7.999934e+000	1.209356e+001	-6.615039e-001
4.118105400011969e-007	-7.999933e+000	1.208882e+001	-6.617631e-001
4.143611479992998e-007	-7.999933e+000	1.208448e+001	-6.620005e-001
4.165929299976397e-007	-7.999932e+000	1.208317e+001	-6.620721e-001
4.172305819971654e-007	-7.999932e+000	1.208333e+001	-6.620636e-001
4.185058859962169e-007	-7.999932e+000	1.208434e+001	-6.620082e-001
4.210564939943197e-007	-7.999932e+000	1.208922e+001	-6.617409e-001
4.265455394090813e-007	-7.999931e+000	1.210611e+001	-6.608179e-001
4.305006004795531e-007	-7.999930e+000	1.212811e+001	-6.596189e-001
4.324430316829959e-007	-7.999930e+000	1.214153e+001	-6.588898e-001
4.367129337931013e-007	-7.999929e+000	1.217689e+001	-6.569763e-001
4.406945359264235e-007	-7.999928e+000	1.221673e+001	-6.548337e-001
4.448153349731712e-007	-7.999928e+000	1.226437e+001	-6.522900e-001
4.449193165573747e-007	-7.999928e+000	1.226565e+001	-6.522219e-001
4.463934012285786e-007	-7.999928e+000	1.228420e+001	-6.512374e-001
4.502104104611523e-007	-7.999927e+000	1.233536e+001	-6.485359e-001
4.536346922343699e-007	-7.999927e+000	1.238465e+001	-6.459550e-001
4.564678438178950e-007	-7.999926e+000	1.242742e+001	-6.437319e-001
4.587424357083769e-007	-7.999926e+000	1.246280e+001	-6.419041e-001
4.601475133121142e-007	-7.999926e+000	1.248504e+001	-6.407610e-001
4.616008336835918e-007	-7.999925e+000	1.250829e+001	-6.395698e-001
4.631949636824060e-007	-7.999925e+000	1.253401e+001	-6.382577e-001
4.643058730253297e-007	-7.999925e+000	1.255204e+001	-6.373407e-001
4.652623510246183e-007	-7.999925e+000	1.256762e+001	-6.365507e-001
4.670956005232547e-007	-7.999924e+000	1.259755e+001	-6.350380e-001
4.680520785225433e-007	-7.999924e+000	1.261318e+001	-6.342512e-001
4.693273825215947e-007	-7.999924e+000	1.263396e+001	-6.332077e-001
4.718779905196976e-007	-7.999924e+000	1.267514e+001	-6.311505e-001
4.769792065159033e-007	-7.999923e+000	1.275464e+001	-6.272165e-001
4.871816385083148e-007	-7.999921e+000	1.290671e+001	-6.198264e-001
4.897322465064176e-007	-7.999921e+000	1.294183e+001	-6.181446e-001
4.948334625026234e-007	-7.999920e+000	1.300371e+001	-6.152030e-001
5.050358944950349e-007	-7.999918e+000	1.310692e+001	-6.103586e-001
5.208449366890607e-007	-7.999916e+000	1.322129e+001	-6.050783e-001
5.403106902803065e-007	-7.999913e+000	1.331294e+001	-6.009127e-001
5.429372455068626e-007	-7.999912e+000	1.332027e+001	-6.005819e-001
5.481903559599749e-007	-7.999911e+000	1.332824e+001	-6.002227e-001
5.586965768661994e-007	-7.999910e+000	1.333996e+001	-5.996951e-001
5.590248962695190e-007	-7.999910e+000	1.334022e+001	-5.996837e-001
5.596815350761580e-007	-7.999909e+000	1.334056e+001	-5.996683e-001
5.609948126894360e-007	-7.999909e+000	1.334116e+001	-5.996412e-001
5.639781997223277e-007	-7.999909e+000	1.334230e+001	-5.995898e-001
5.652504374101909e-007	-7.999909e+000	1.334262e+001	-5.995753e-001
5.665637150234689e-007	-7.999908e+000	1.334287e+001	-5.995645e-001
5.691902702500251e-007	-7.999908e+000	1.334311e+001	-5.995534e-001
5.744433807031374e-007	-7.999907e+000	1.334290e+001	-5.995629e-001
5.849496016093619e-007	-7.999906e+000	1.334106e+001	-5.996453e-001
6.059620434218110e-007	-7.999902e+000	1.333738e+001	-5.998107e-001
6.437534200772511e-007	-7.999896e+000	1.333491e+001	-5.999213e-001
6.488046470985119e-007	-7.999896e+000	1.333558e+001	-5.998913e-001
6.589071011410335e-007	-7.999894e+000	1.333894e+001	-5.997397e-001
6.791120092260767e-007	-7.999890e+000	1.334837e+001	-5.993159e-001
7.195218253961633e-007	-7.999884e+000	1.337139e+001	-5.982838e-001
7.257177694521206e-007	-7.999883e+000	1.337526e+001	-5.981106e-001
7.419821225990088e-007	-7.999880e+000	1.338582e+001	-5.976384e-001
7.528250246969342e-007	-7.999879e+000	1.339275e+001	-5.973290e-001
7.961966330886359e-007	-7.999872e+000	1.341944e+001	-5.961405e-001
8.085885212005507e-007	-7.999870e+000	1.342679e+001	-5.958140e-001
8.333722974243803e-007	-7.999866e+000	1.344137e+001	-5.951673e-001
8.829424970649344e-007	-7.999858e+000	1.347040e+001	-5.938841e-001
8.831410365320596e-007	-7.999858e+000	1.347052e+001	-5.938790e-001
8.899631392047482e-007	-7.999857e+000	1.347449e+001	-5.937037e-001
9.032772091652127e-007	-7.999855e+000	1.348227e+001	-5.933611e-001
9.170449137407254e-007	-7.999853e+000	1.349033e+001	-5.930063e-001
9.446568229994776e-007	-7.999848e+000	1.350655e+001	-5.922941e-001
9.818324873352218e-007	-7.999842e+000	1.352843e+001	-5.913358e-001
1.044511772322574e-006	-7.999832e+000	1.356541e+001	-5.897228e-001
1.047257384067707e-006	-7.999832e+000	1.356703e+001	-5.896523e-001
1.115477657408188e-006	-7.999821e+000	1.360740e+001	-5.879024e-001
1.152653321743932e-006	-7.999815e+000	1.362945e+001	-5.869506e-001
1.202220874191591e-006	-7.999807e+000	1.365893e+001	-5.856832e-001
1.310039735946877e-006	-7.999790e+000	1.372340e+001	-5.829307e-001
1.363198539328966e-006	-7.999781e+000	1.375532e+001	-5.815772e-001
1.432218921109994e-006	-7.999770e+000	1.379698e+001	-5.798205e-001
1.478532291029819e-006	-7.999763e+000	1.382503e+001	-5.786434e-001
1.591421130209393e-006	-7.999744e+000	1.389382e+001	-5.757771e-001
1.660891185089132e-006	-7.999733e+000	1.393644e+001	-5.740157e-001
1.753517924928782e-006	-7.999719e+000	1.399361e+001	-5.716695e-001
1.938771404608084e-006	-7.999689e+000	1.410920e+001	-5.669840e-001
2.271767860064989e-006	-7.999636e+000	1.432147e+001	-5.585764e-001
2.635435726452438e-006	-7.999578e+000	1.456031e+001	-5.494100e-001
3.089632674844580e-006	-7.999505e+000	1.486958e+001	-5.379781e-001
3.614093240334907e-006	-7.999421e+000	1.524303e+001	-5.247921e-001
4.293957910326208e-006	-7.999312e+000	1.575555e+001	-5.077138e-001
5.076780293752072e-006	-7.999187e+000	1.638969e+001	-4.880622e-001
6.128290598946706e-006	-7.999019e+000	1.732598e+001	-4.616777e-001
